
T0598 000:292 SEGGER J-Link V5.12e Log File (0001ms, 0278ms total)
T0598 000:292 DLL Compiled: Apr 29 2016 15:03:58 (0001ms, 0278ms total)
T0598 000:292 Logging started @ 2017-01-18 12:02 (0001ms, 0278ms total)
T0598 000:293 JLINK_SetWarnOutHandler(...) (0001ms, 0279ms total)
T0598 000:294 JLINK_OpenEx(...)
Firmware: J-Link V9 compiled Dec  2 2016 15:35:20
Hardware: V9.40
S/N: 59406729
Feature(s): RDI, GDB, FlashDL, FlashBP, JFlash  returns O.K. (0269ms, 0548ms total)
T0598 000:563 JLINK_SetErrorOutHandler(...) (0000ms, 0548ms total)
T0598 000:563 JLINK_ExecCommand("ProjectFile = "C:\Users\Administrator\Desktop\基于战舰STM32的1602液晶驱动程序\基于战舰STM32的1602液晶驱动程序\USER\JLinkSettings.ini"", ...)  returns 0x00 (0001ms, 0549ms total)
T0598 000:567 JLINK_ExecCommand("Device = STM32F107VC", ...)Device "STM32F107VC" selected.  returns 0x00 (0006ms, 0555ms total)
T0598 000:574 JLINK_ExecCommand("DisableConnectionTimeout", ...)  returns 0x01 (0000ms, 0556ms total)
T0598 000:574 JLINK_GetHardwareVersion()  returns 0x16F30 (0000ms, 0556ms total)
T0598 000:574 JLINK_GetDLLVersion()  returns 51205 (0000ms, 0556ms total)
T0598 000:574 JLINK_GetFirmwareString(...) (0000ms, 0556ms total)
T0598 000:592 JLINK_GetDLLVersion()  returns 51205 (0000ms, 0556ms total)
T0598 000:592 JLINK_GetCompileDateTime() (0000ms, 0556ms total)
T0598 000:598 JLINK_GetFirmwareString(...) (0000ms, 0556ms total)
T0598 000:605 JLINK_GetHardwareVersion()  returns 0x16F30 (0000ms, 0556ms total)
T0598 000:627 JLINK_TIF_Select(JLINKARM_TIF_SWD)  returns 0x00 (0002ms, 0558ms total)
T0598 000:629 JLINK_SetSpeed(5000) (0001ms, 0559ms total)
T0598 000:630 JLINK_GetId() >0x108 TIF>Found SWD-DP with ID 0x1BA01477 >0x0D TIF> >0x28 TIF> >0x0D TIF> >0x28 TIF> >0x0D TIF> >0x28 TIF> >0x0D TIF> >0x28 TIF> >0x0D TIF> >0x21 TIF> >0x0D TIF> >0x28 TIF> >0x0D TIF> >0x28 TIF> >0x0D TIF> >0x28 TIF> >0x0D TIF> >0x21 TIF> >0x0D TIF> >0x21 TIF> >0x0D TIF> >0x28 TIF> >0x0D TIF> >0x21 TIF> >0x0D TIF> >0x21 TIF> >0x0D TIF> >0x28 TIF> >0x0D TIF> >0x21 TIF> >0x0D TIF> >0x21 TIF> >0x0D TIF> >0x28 TIF> >0x0D TIF> >0x21 TIF> >0x0D TIF> >0x21 TIF> >0x0D TIF>
 >0x28 TIF> >0x0D TIF> >0x21 TIF> >0x0D TIF> >0x21 TIF> >0x0D TIF> >0x28 TIF> >0x0D TIF> >0x21 TIF> >0x0D TIF> >0x21 TIF> >0x108 TIF>Found SWD-DP with ID 0x1BA01477 >0x0D TIF> >0x28 TIF> >0x0D TIF> >0x28 TIF> >0x0D TIF> >0x28 TIF> >0x0D TIF> >0x28 TIF> >0x0D TIF> >0x21 TIF> >0x0D TIF> >0x28 TIF> >0x0D TIF> >0x28 TIF> >0x0D TIF> >0x21 TIF> >0x0D TIF> >0x21 TIF> >0x0D TIF> >0x21 TIF> >0x0D TIF> >0x28 TIF> >0x0D TIF> >0x28 TIF> >0x0D TIF> >0x28 TIF> >0x0D TIF> >0x21 TIF> >0x0D TIF> >0x21 TIF> >0x0D TIF>
 >0x28 TIF> >0x0D TIF> >0x21 TIF> >0x0D TIF> >0x21 TIF>Found Cortex-M3 r1p1, Little endian. -- CPU_ReadMem(4 bytes @ 0xE000EDF0) -- CPU_ReadMem(4 bytes @ 0xE0002000)FPUnit: 6 code (BP) slots and 2 literal slots -- CPU_ReadMem(4 bytes @ 0xE000EDFC) -- CPU_ReadMem(4 bytes @ 0xE0001000) -- CPU_WriteMem(4 bytes @ 0xE0001000) -- CPU_ReadMem(4 bytes @ 0xE000ED88) -- CPU_WriteMem(4 bytes @ 0xE000ED88) -- CPU_ReadMem(4 bytes @ 0xE000ED88) -- CPU_WriteMem(4 bytes @ 0xE000ED88)CoreSight components:
ROMTbl 0 @ E00FF000 -- CPU_ReadMem(16 bytes @ 0xE00FF000) -- CPU_ReadMem(16 bytes @ 0xE000EFF0) -- CPU_ReadMem(16 bytes @ 0xE000EFE0)ROMTbl 0 [0]: FFF0F000, CID: B105E00D, PID: 001BB000 SCS -- CPU_ReadMem(16 bytes @ 0xE0001FF0) -- CPU_ReadMem(16 bytes @ 0xE0001FE0)ROMTbl 0 [1]: FFF02000, CID: B105E00D, PID: 001BB002 DWT -- CPU_ReadMem(16 bytes @ 0xE0002FF0) -- CPU_ReadMem(16 bytes @ 0xE0002FE0)ROMTbl 0 [2]: FFF03000, CID: B105E00D, PID: 000BB003 FPB -- CPU_ReadMem(16 bytes @ 0xE0000FF0)
 -- CPU_ReadMem(16 bytes @ 0xE0000FE0)ROMTbl 0 [3]: FFF01000, CID: B105E00D, PID: 001BB001 ITM -- CPU_ReadMem(16 bytes @ 0xE00FF010) -- CPU_ReadMem(16 bytes @ 0xE0040FF0) -- CPU_ReadMem(16 bytes @ 0xE0040FE0)ROMTbl 0 [4]: FFF41000, CID: B105900D, PID: 001BB923 TPIU-Lite -- CPU_ReadMem(16 bytes @ 0xE0041FF0) -- CPU_ReadMem(16 bytes @ 0xE0041FE0)ROMTbl 0 [5]: FFF42000, CID: B105900D, PID: 101BB924 ETM-M3 >0x0D TIF> >0x21 TIF>  returns 0x1BA01477 (0129ms, 0688ms total)
T0598 000:759 JLINK_GetDLLVersion()  returns 51205 (0000ms, 0688ms total)
T0598 000:759 JLINK_CORE_GetFound()  returns 0x30000FF (0000ms, 0688ms total)
T0598 000:759 JLINK_GetDebugInfo(0x100) -- Value=0xE00FF000  returns 0x00 (0000ms, 0688ms total)
T0598 000:765 JLINK_GetDebugInfo(0x100) -- Value=0xE00FF000  returns 0x00 (0000ms, 0688ms total)
T0598 000:765 JLINK_GetDebugInfo(0x101) -- Value=0xE0041000  returns 0x00 (0000ms, 0688ms total)
T0598 000:765 JLINK_GetDebugInfo(0x102) -- Value=0x00000000  returns 0x00 (0000ms, 0688ms total)
T0598 000:765 JLINK_GetDebugInfo(0x103) -- Value=0xE0040000  returns 0x00 (0000ms, 0688ms total)
T0598 000:765 JLINK_GetDebugInfo(0x104) -- Value=0xE0000000  returns 0x00 (0000ms, 0688ms total)
T0598 000:765 JLINK_GetDebugInfo(0x105) -- Value=0xE0001000  returns 0x00 (0000ms, 0688ms total)
T0598 000:765 JLINK_GetDebugInfo(0x106) -- Value=0xE0002000  returns 0x00 (0000ms, 0688ms total)
T0598 000:765 JLINK_GetDebugInfo(0x107) -- Value=0xE000E000  returns 0x00 (0000ms, 0688ms total)
T0598 000:765 JLINK_GetDebugInfo(0x10C) -- Value=0xE000EDF0  returns 0x00 (0000ms, 0688ms total)
T0598 000:765 JLINK_ReadMemU32(0xE000ED00, 0x0001 Items, ...) -- CPU is running -- CPU_ReadMem(4 bytes @ 0xE000ED00) - Data: 31 C2 1F 41  returns 0x01 (0002ms, 0690ms total)
T0598 000:767 JLINK_SetResetType(JLINKARM_RESET_TYPE_NORMAL)  returns JLINKARM_RESET_TYPE_NORMAL (0000ms, 0690ms total)
T0598 000:767 JLINK_Reset() -- CPU is running -- CPU_WriteMem(4 bytes @ 0xE000EDF0) -- CPU is running -- CPU_WriteMem(4 bytes @ 0xE000EDFC) >0x35 TIF> -- CPU is running -- CPU_WriteMem(4 bytes @ 0xE000ED0C) -- CPU is running -- CPU_ReadMem(4 bytes @ 0xE000EDF0) -- CPU is running -- CPU_ReadMem(4 bytes @ 0xE000EDF0) -- CPU is running -- CPU_WriteMem(4 bytes @ 0xE000EDF0) -- CPU is running -- CPU_WriteMem(4 bytes @ 0xE000EDFC) -- CPU is running -- CPU_ReadMem(4 bytes @ 0xE000EDF0)
 -- CPU_WriteMem(4 bytes @ 0xE0002000) -- CPU_ReadMem(4 bytes @ 0xE000EDFC) -- CPU_ReadMem(4 bytes @ 0xE0001000) (0018ms, 0708ms total)
T0598 000:785 JLINK_Halt()  returns 0x00 (0000ms, 0708ms total)
T0598 000:785 JLINK_IsHalted()  returns TRUE (0000ms, 0708ms total)
T0598 000:785 JLINK_ReadMemU32(0xE000EDF0, 0x0001 Items, ...) -- CPU_ReadMem(4 bytes @ 0xE000EDF0) - Data: 03 00 03 00  returns 0x01 (0001ms, 0709ms total)
T0598 000:786 JLINK_WriteU32(0xE000EDF0, 0xA05F0003) -- CPU_WriteMem(4 bytes @ 0xE000EDF0)  returns 0x00 (0001ms, 0710ms total)
T0598 000:787 JLINK_WriteU32(0xE000EDFC, 0x01000000) -- CPU_WriteMem(4 bytes @ 0xE000EDFC)  returns 0x00 (0000ms, 0710ms total)
T0598 000:807 JLINK_GetHWStatus(...)  returns 0x00 (0001ms, 0711ms total)
T0598 000:822 JLINK_GetNumBPUnits(Type = 0xFFFFFF00)  returns 0x06 (0000ms, 0711ms total)
T0598 000:822 JLINK_GetNumBPUnits(Type = 0xF0)  returns 0x2000 (0000ms, 0711ms total)
T0598 000:822 JLINK_GetNumWPUnits()  returns 0x04 (0000ms, 0711ms total)
T0598 000:837 JLINK_GetSpeed()  returns 0xFA0 (0000ms, 0711ms total)
T0598 000:846 JLINK_ReadMemU32(0xE000E004, 0x0001 Items, ...) -- CPU_ReadMem(4 bytes @ 0xE000E004) - Data: 02 00 00 00  returns 0x01 (0000ms, 0711ms total)
T0598 000:846 JLINK_ReadMemU32(0xE000E004, 0x0001 Items, ...) -- CPU_ReadMem(4 bytes @ 0xE000E004) - Data: 02 00 00 00  returns 0x01 (0001ms, 0712ms total)
T0598 000:847 JLINK_WriteMem(0xE0001000, 0x001C Bytes, ...) - Data: 01 00 00 00 00 00 00 00 00 00 00 00 00 00 00 00 ... -- CPU_WriteMem(28 bytes @ 0xE0001000)  returns 0x1C (0002ms, 0714ms total)
T0598 000:849 JLINK_ReadMem (0xE0001000, 0x001C Bytes, ...) -- CPU_ReadMem(28 bytes @ 0xE0001000) - Data: 01 00 00 40 00 00 00 00 00 00 00 00 00 00 00 00 ...  returns 0x00 (0001ms, 0715ms total)
T0598 000:850 JLINK_Halt()  returns 0x00 (0000ms, 0715ms total)
T0598 000:850 JLINK_IsHalted()  returns TRUE (0000ms, 0715ms total)
T0598 000:855 JLINK_WriteMem(0x20000000, 0x0164 Bytes, ...) - Data: 00 BE 0A E0 0D 78 2D 06 68 40 08 24 40 00 00 D3 ... -- CPU_WriteMem(356 bytes @ 0x20000000)  returns 0x164 (0003ms, 0718ms total)
T0598 000:858 JLINK_WriteReg(R0, 0x08000000)  returns 0x00 (0000ms, 0718ms total)
T0598 000:858 JLINK_WriteReg(R1, 0x017D7840)  returns 0x00 (0000ms, 0718ms total)
T0598 000:858 JLINK_WriteReg(R2, 0x00000001)  returns 0x00 (0000ms, 0718ms total)
T0598 000:858 JLINK_WriteReg(R3, 0x00000000)  returns 0x00 (0000ms, 0718ms total)
T0598 000:858 JLINK_WriteReg(R4, 0x00000000)  returns 0x00 (0000ms, 0718ms total)
T0598 000:858 JLINK_WriteReg(R5, 0x00000000)  returns 0x00 (0000ms, 0718ms total)
T0598 000:858 JLINK_WriteReg(R6, 0x00000000)  returns 0x00 (0000ms, 0718ms total)
T0598 000:858 JLINK_WriteReg(R7, 0x00000000)  returns 0x00 (0000ms, 0718ms total)
T0598 000:858 JLINK_WriteReg(R8, 0x00000000)  returns 0x00 (0001ms, 0719ms total)
T0598 000:859 JLINK_WriteReg(R9, 0x20000160)  returns 0x00 (0000ms, 0719ms total)
T0598 000:859 JLINK_WriteReg(R10, 0x00000000)  returns 0x00 (0000ms, 0719ms total)
T0598 000:859 JLINK_WriteReg(R11, 0x00000000)  returns 0x00 (0000ms, 0719ms total)
T0598 000:859 JLINK_WriteReg(R12, 0x00000000)  returns 0x00 (0000ms, 0719ms total)
T0598 000:859 JLINK_WriteReg(R13 (SP), 0x20000800)  returns 0x00 (0000ms, 0719ms total)
T0598 000:859 JLINK_WriteReg(R14, 0x20000001)  returns 0x00 (0000ms, 0719ms total)
T0598 000:859 JLINK_WriteReg(R15 (PC), 0x20000038)  returns 0x00 (0000ms, 0719ms total)
T0598 000:859 JLINK_WriteReg(XPSR, 0x01000000)  returns 0x00 (0000ms, 0719ms total)
T0598 000:859 JLINK_WriteReg(MSP, 0x20000800)  returns 0x00 (0000ms, 0719ms total)
T0598 000:859 JLINK_WriteReg(PSP, 0x20000800)  returns 0x00 (0000ms, 0719ms total)
T0598 000:859 JLINK_WriteReg(CFBP, 0x00000000)  returns 0x00 (0000ms, 0719ms total)
T0598 000:859 JLINK_SetBPEx(Addr = 0x20000000, Type = 0xFFFFFFF2) -- CPU_ReadMem(2 bytes @ 0x20000000)  returns 0x00000001 (0001ms, 0720ms total)
T0598 000:860 JLINK_Go() -- CPU_WriteMem(2 bytes @ 0x20000000) -- CPU_ReadMem(4 bytes @ 0xE0001000) -- CPU_WriteMem(4 bytes @ 0xE0002008) -- CPU_WriteMem(4 bytes @ 0xE000200C) -- CPU_WriteMem(4 bytes @ 0xE0002010) -- CPU_WriteMem(4 bytes @ 0xE0002014) -- CPU_WriteMem(4 bytes @ 0xE0002018) -- CPU_WriteMem(4 bytes @ 0xE000201C) -- CPU_WriteMem(4 bytes @ 0xE0001004) (0006ms, 0726ms total)
T0598 000:866 JLINK_IsHalted() -- CPU_ReadMem(2 bytes @ 0x20000000)  returns TRUE (0003ms, 0729ms total)
T0598 000:869 JLINK_ReadReg(R15 (PC))  returns 0x20000000 (0000ms, 0726ms total)
T0598 000:869 JLINK_ClrBPEx(BPHandle = 0x00000001)  returns 0x00 (0000ms, 0726ms total)
T0598 000:869 JLINK_ReadReg(R0)  returns 0x00000000 (0000ms, 0726ms total)
T0598 000:870 JLINK_WriteReg(R0, 0x08000000)  returns 0x00 (0000ms, 0726ms total)
T0598 000:870 JLINK_WriteReg(R1, 0x00000800)  returns 0x00 (0000ms, 0726ms total)
T0598 000:870 JLINK_WriteReg(R2, 0x000000FF)  returns 0x00 (0000ms, 0726ms total)
T0598 000:870 JLINK_WriteReg(R3, 0x00000000)  returns 0x00 (0000ms, 0726ms total)
T0598 000:870 JLINK_WriteReg(R4, 0x00000000)  returns 0x00 (0000ms, 0726ms total)
T0598 000:870 JLINK_WriteReg(R5, 0x00000000)  returns 0x00 (0000ms, 0726ms total)
T0598 000:871 JLINK_WriteReg(R6, 0x00000000)  returns 0x00 (0000ms, 0727ms total)
T0598 000:871 JLINK_WriteReg(R7, 0x00000000)  returns 0x00 (0000ms, 0727ms total)
T0598 000:871 JLINK_WriteReg(R8, 0x00000000)  returns 0x00 (0000ms, 0727ms total)
T0598 000:871 JLINK_WriteReg(R9, 0x20000160)  returns 0x00 (0000ms, 0727ms total)
T0598 000:871 JLINK_WriteReg(R10, 0x00000000)  returns 0x00 (0000ms, 0727ms total)
T0598 000:871 JLINK_WriteReg(R11, 0x00000000)  returns 0x00 (0000ms, 0727ms total)
T0598 000:871 JLINK_WriteReg(R12, 0x00000000)  returns 0x00 (0000ms, 0727ms total)
T0598 000:871 JLINK_WriteReg(R13 (SP), 0x20000800)  returns 0x00 (0000ms, 0727ms total)
T0598 000:871 JLINK_WriteReg(R14, 0x20000001)  returns 0x00 (0000ms, 0727ms total)
T0598 000:871 JLINK_WriteReg(R15 (PC), 0x20000020)  returns 0x00 (0000ms, 0727ms total)
T0598 000:871 JLINK_WriteReg(XPSR, 0x01000000)  returns 0x00 (0000ms, 0727ms total)
T0598 000:871 JLINK_WriteReg(MSP, 0x20000800)  returns 0x00 (0000ms, 0727ms total)
T0598 000:871 JLINK_WriteReg(PSP, 0x20000800)  returns 0x00 (0001ms, 0728ms total)
T0598 000:872 JLINK_WriteReg(CFBP, 0x00000000)  returns 0x00 (0000ms, 0728ms total)
T0598 000:872 JLINK_SetBPEx(Addr = 0x20000000, Type = 0xFFFFFFF2)  returns 0x00000002 (0000ms, 0728ms total)
T0598 000:872 JLINK_Go() -- CPU_ReadMem(4 bytes @ 0xE0001000) (0002ms, 0730ms total)
T0598 000:874 JLINK_IsHalted() -- CPU_ReadMem(2 bytes @ 0x20000000)  returns TRUE (0003ms, 0733ms total)
T0598 000:877 JLINK_ReadReg(R15 (PC))  returns 0x20000000 (0000ms, 0730ms total)
T0598 000:877 JLINK_ClrBPEx(BPHandle = 0x00000002)  returns 0x00 (0000ms, 0730ms total)
T0598 000:877 JLINK_ReadReg(R0)  returns 0x00000001 (0000ms, 0730ms total)
T0598 000:877 JLINK_WriteReg(R0, 0x08000000)  returns 0x00 (0001ms, 0731ms total)
T0598 000:878 JLINK_WriteReg(R1, 0x00000800)  returns 0x00 (0000ms, 0731ms total)
T0598 000:878 JLINK_WriteReg(R2, 0x000000FF)  returns 0x00 (0000ms, 0731ms total)
T0598 000:878 JLINK_WriteReg(R3, 0x00000000)  returns 0x00 (0000ms, 0731ms total)
T0598 000:878 JLINK_WriteReg(R4, 0x00000000)  returns 0x00 (0000ms, 0731ms total)
T0598 000:878 JLINK_WriteReg(R5, 0x00000000)  returns 0x00 (0000ms, 0731ms total)
T0598 000:878 JLINK_WriteReg(R6, 0x00000000)  returns 0x00 (0000ms, 0731ms total)
T0598 000:878 JLINK_WriteReg(R7, 0x00000000)  returns 0x00 (0000ms, 0731ms total)
T0598 000:878 JLINK_WriteReg(R8, 0x00000000)  returns 0x00 (0000ms, 0731ms total)
T0598 000:878 JLINK_WriteReg(R9, 0x20000160)  returns 0x00 (0000ms, 0731ms total)
T0598 000:878 JLINK_WriteReg(R10, 0x00000000)  returns 0x00 (0000ms, 0731ms total)
T0598 000:878 JLINK_WriteReg(R11, 0x00000000)  returns 0x00 (0000ms, 0731ms total)
T0598 000:878 JLINK_WriteReg(R12, 0x00000000)  returns 0x00 (0001ms, 0732ms total)
T0598 000:879 JLINK_WriteReg(R13 (SP), 0x20000800)  returns 0x00 (0000ms, 0732ms total)
T0598 000:879 JLINK_WriteReg(R14, 0x20000001)  returns 0x00 (0000ms, 0732ms total)
T0598 000:879 JLINK_WriteReg(R15 (PC), 0x200000B6)  returns 0x00 (0000ms, 0732ms total)
T0598 000:879 JLINK_WriteReg(XPSR, 0x01000000)  returns 0x00 (0000ms, 0732ms total)
T0598 000:879 JLINK_WriteReg(MSP, 0x20000800)  returns 0x00 (0000ms, 0732ms total)
T0598 000:879 JLINK_WriteReg(PSP, 0x20000800)  returns 0x00 (0000ms, 0732ms total)
T0598 000:879 JLINK_WriteReg(CFBP, 0x00000000)  returns 0x00 (0000ms, 0732ms total)
T0598 000:879 JLINK_SetBPEx(Addr = 0x20000000, Type = 0xFFFFFFF2)  returns 0x00000003 (0000ms, 0732ms total)
T0598 000:879 JLINK_Go() -- CPU_ReadMem(4 bytes @ 0xE0001000) (0002ms, 0734ms total)
T0598 000:881 JLINK_IsHalted()  returns FALSE (0001ms, 0735ms total)
T0598 000:946 JLINK_IsHalted() -- CPU_ReadMem(2 bytes @ 0x20000000)  returns TRUE (0003ms, 0737ms total)
T0598 000:949 JLINK_ReadReg(R15 (PC))  returns 0x20000000 (0000ms, 0734ms total)
T0598 000:949 JLINK_ClrBPEx(BPHandle = 0x00000003)  returns 0x00 (0000ms, 0734ms total)
T0598 000:949 JLINK_ReadReg(R0)  returns 0x00000000 (0000ms, 0734ms total)
T0598 000:950 JLINK_WriteReg(R0, 0x08000800)  returns 0x00 (0000ms, 0734ms total)
T0598 000:950 JLINK_WriteReg(R1, 0x00000800)  returns 0x00 (0000ms, 0734ms total)
T0598 000:950 JLINK_WriteReg(R2, 0x000000FF)  returns 0x00 (0000ms, 0734ms total)
T0598 000:950 JLINK_WriteReg(R3, 0x00000000)  returns 0x00 (0001ms, 0735ms total)
T0598 000:951 JLINK_WriteReg(R4, 0x00000000)  returns 0x00 (0000ms, 0735ms total)
T0598 000:951 JLINK_WriteReg(R5, 0x00000000)  returns 0x00 (0000ms, 0735ms total)
T0598 000:951 JLINK_WriteReg(R6, 0x00000000)  returns 0x00 (0000ms, 0735ms total)
T0598 000:951 JLINK_WriteReg(R7, 0x00000000)  returns 0x00 (0000ms, 0735ms total)
T0598 000:951 JLINK_WriteReg(R8, 0x00000000)  returns 0x00 (0000ms, 0735ms total)
T0598 000:951 JLINK_WriteReg(R9, 0x20000160)  returns 0x00 (0000ms, 0735ms total)
T0598 000:951 JLINK_WriteReg(R10, 0x00000000)  returns 0x00 (0000ms, 0735ms total)
T0598 000:951 JLINK_WriteReg(R11, 0x00000000)  returns 0x00 (0000ms, 0735ms total)
T0598 000:951 JLINK_WriteReg(R12, 0x00000000)  returns 0x00 (0000ms, 0735ms total)
T0598 000:951 JLINK_WriteReg(R13 (SP), 0x20000800)  returns 0x00 (0000ms, 0735ms total)
T0598 000:951 JLINK_WriteReg(R14, 0x20000001)  returns 0x00 (0000ms, 0735ms total)
T0598 000:951 JLINK_WriteReg(R15 (PC), 0x20000020)  returns 0x00 (0000ms, 0735ms total)
T0598 000:952 JLINK_WriteReg(XPSR, 0x01000000)  returns 0x00 (0000ms, 0735ms total)
T0598 000:952 JLINK_WriteReg(MSP, 0x20000800)  returns 0x00 (0000ms, 0735ms total)
T0598 000:952 JLINK_WriteReg(PSP, 0x20000800)  returns 0x00 (0000ms, 0735ms total)
T0598 000:952 JLINK_WriteReg(CFBP, 0x00000000)  returns 0x00 (0000ms, 0735ms total)
T0598 000:952 JLINK_SetBPEx(Addr = 0x20000000, Type = 0xFFFFFFF2)  returns 0x00000004 (0000ms, 0735ms total)
T0598 000:952 JLINK_Go() -- CPU_ReadMem(4 bytes @ 0xE0001000) (0002ms, 0737ms total)
T0598 000:954 JLINK_IsHalted() -- CPU_ReadMem(2 bytes @ 0x20000000)  returns TRUE (0004ms, 0741ms total)
T0598 000:958 JLINK_ReadReg(R15 (PC))  returns 0x20000000 (0000ms, 0737ms total)
T0598 000:958 JLINK_ClrBPEx(BPHandle = 0x00000004)  returns 0x00 (0000ms, 0737ms total)
T0598 000:958 JLINK_ReadReg(R0)  returns 0x00000001 (0000ms, 0737ms total)
T0598 000:958 JLINK_WriteReg(R0, 0x08000800)  returns 0x00 (0000ms, 0737ms total)
T0598 000:958 JLINK_WriteReg(R1, 0x00000800)  returns 0x00 (0000ms, 0737ms total)
T0598 000:958 JLINK_WriteReg(R2, 0x000000FF)  returns 0x00 (0000ms, 0737ms total)
T0598 000:958 JLINK_WriteReg(R3, 0x00000000)  returns 0x00 (0000ms, 0737ms total)
T0598 000:958 JLINK_WriteReg(R4, 0x00000000)  returns 0x00 (0000ms, 0737ms total)
T0598 000:958 JLINK_WriteReg(R5, 0x00000000)  returns 0x00 (0000ms, 0737ms total)
T0598 000:958 JLINK_WriteReg(R6, 0x00000000)  returns 0x00 (0000ms, 0737ms total)
T0598 000:958 JLINK_WriteReg(R7, 0x00000000)  returns 0x00 (0000ms, 0737ms total)
T0598 000:958 JLINK_WriteReg(R8, 0x00000000)  returns 0x00 (0000ms, 0737ms total)
T0598 000:958 JLINK_WriteReg(R9, 0x20000160)  returns 0x00 (0001ms, 0738ms total)
T0598 000:959 JLINK_WriteReg(R10, 0x00000000)  returns 0x00 (0000ms, 0738ms total)
T0598 000:959 JLINK_WriteReg(R11, 0x00000000)  returns 0x00 (0000ms, 0738ms total)
T0598 000:959 JLINK_WriteReg(R12, 0x00000000)  returns 0x00 (0000ms, 0738ms total)
T0598 000:959 JLINK_WriteReg(R13 (SP), 0x20000800)  returns 0x00 (0000ms, 0738ms total)
T0598 000:959 JLINK_WriteReg(R14, 0x20000001)  returns 0x00 (0000ms, 0738ms total)
T0598 000:959 JLINK_WriteReg(R15 (PC), 0x200000B6)  returns 0x00 (0000ms, 0738ms total)
T0598 000:959 JLINK_WriteReg(XPSR, 0x01000000)  returns 0x00 (0000ms, 0738ms total)
T0598 000:959 JLINK_WriteReg(MSP, 0x20000800)  returns 0x00 (0000ms, 0738ms total)
T0598 000:959 JLINK_WriteReg(PSP, 0x20000800)  returns 0x00 (0000ms, 0738ms total)
T0598 000:959 JLINK_WriteReg(CFBP, 0x00000000)  returns 0x00 (0000ms, 0738ms total)
T0598 000:959 JLINK_SetBPEx(Addr = 0x20000000, Type = 0xFFFFFFF2)  returns 0x00000005 (0000ms, 0738ms total)
T0598 000:959 JLINK_Go() -- CPU_ReadMem(4 bytes @ 0xE0001000) (0002ms, 0740ms total)
T0598 000:961 JLINK_IsHalted()  returns FALSE (0001ms, 0741ms total)
T0598 000:969 JLINK_IsHalted()  returns FALSE (0000ms, 0740ms total)
T0598 000:970 JLINK_IsHalted()  returns FALSE (0000ms, 0740ms total)
T0598 000:971 JLINK_IsHalted()  returns FALSE (0000ms, 0740ms total)
T0598 000:972 JLINK_IsHalted()  returns FALSE (0000ms, 0740ms total)
T0598 000:973 JLINK_IsHalted()  returns FALSE (0000ms, 0740ms total)
T0598 000:974 JLINK_IsHalted()  returns FALSE (0000ms, 0740ms total)
T0598 000:975 JLINK_IsHalted()  returns FALSE (0000ms, 0740ms total)
T0598 000:976 JLINK_IsHalted()  returns FALSE (0000ms, 0740ms total)
T0598 000:986 JLINK_IsHalted() -- CPU_ReadMem(2 bytes @ 0x20000000)  returns TRUE (0003ms, 0743ms total)
T0598 000:989 JLINK_ReadReg(R15 (PC))  returns 0x20000000 (0000ms, 0740ms total)
T0598 000:989 JLINK_ClrBPEx(BPHandle = 0x00000005)  returns 0x00 (0000ms, 0740ms total)
T0598 000:989 JLINK_ReadReg(R0)  returns 0x00000000 (0000ms, 0740ms total)
T0598 000:990 JLINK_WriteReg(R0, 0x08001000)  returns 0x00 (0000ms, 0740ms total)
T0598 000:990 JLINK_WriteReg(R1, 0x00000800)  returns 0x00 (0000ms, 0740ms total)
T0598 000:990 JLINK_WriteReg(R2, 0x000000FF)  returns 0x00 (0000ms, 0740ms total)
T0598 000:990 JLINK_WriteReg(R3, 0x00000000)  returns 0x00 (0000ms, 0740ms total)
T0598 000:990 JLINK_WriteReg(R4, 0x00000000)  returns 0x00 (0000ms, 0740ms total)
T0598 000:990 JLINK_WriteReg(R5, 0x00000000)  returns 0x00 (0000ms, 0740ms total)
T0598 000:990 JLINK_WriteReg(R6, 0x00000000)  returns 0x00 (0001ms, 0741ms total)
T0598 000:991 JLINK_WriteReg(R7, 0x00000000)  returns 0x00 (0000ms, 0741ms total)
T0598 000:991 JLINK_WriteReg(R8, 0x00000000)  returns 0x00 (0000ms, 0741ms total)
T0598 000:991 JLINK_WriteReg(R9, 0x20000160)  returns 0x00 (0000ms, 0741ms total)
T0598 000:991 JLINK_WriteReg(R10, 0x00000000)  returns 0x00 (0000ms, 0741ms total)
T0598 000:991 JLINK_WriteReg(R11, 0x00000000)  returns 0x00 (0000ms, 0741ms total)
T0598 000:991 JLINK_WriteReg(R12, 0x00000000)  returns 0x00 (0000ms, 0741ms total)
T0598 000:991 JLINK_WriteReg(R13 (SP), 0x20000800)  returns 0x00 (0000ms, 0741ms total)
T0598 000:991 JLINK_WriteReg(R14, 0x20000001)  returns 0x00 (0000ms, 0741ms total)
T0598 000:991 JLINK_WriteReg(R15 (PC), 0x20000020)  returns 0x00 (0000ms, 0741ms total)
T0598 000:991 JLINK_WriteReg(XPSR, 0x01000000)  returns 0x00 (0000ms, 0741ms total)
T0598 000:991 JLINK_WriteReg(MSP, 0x20000800)  returns 0x00 (0000ms, 0741ms total)
T0598 000:991 JLINK_WriteReg(PSP, 0x20000800)  returns 0x00 (0000ms, 0741ms total)
T0598 000:991 JLINK_WriteReg(CFBP, 0x00000000)  returns 0x00 (0001ms, 0742ms total)
T0598 000:992 JLINK_SetBPEx(Addr = 0x20000000, Type = 0xFFFFFFF2)  returns 0x00000006 (0000ms, 0742ms total)
T0598 000:992 JLINK_Go() -- CPU_ReadMem(4 bytes @ 0xE0001000) (0002ms, 0744ms total)
T0598 000:994 JLINK_IsHalted() -- CPU_ReadMem(2 bytes @ 0x20000000)  returns TRUE (0003ms, 0747ms total)
T0598 000:997 JLINK_ReadReg(R15 (PC))  returns 0x20000000 (0000ms, 0744ms total)
T0598 000:997 JLINK_ClrBPEx(BPHandle = 0x00000006)  returns 0x00 (0000ms, 0744ms total)
T0598 000:997 JLINK_ReadReg(R0)  returns 0x00000001 (0000ms, 0744ms total)
T0598 000:997 JLINK_WriteReg(R0, 0x08001000)  returns 0x00 (0000ms, 0744ms total)
T0598 000:997 JLINK_WriteReg(R1, 0x00000800)  returns 0x00 (0001ms, 0745ms total)
T0598 000:998 JLINK_WriteReg(R2, 0x000000FF)  returns 0x00 (0000ms, 0745ms total)
T0598 000:998 JLINK_WriteReg(R3, 0x00000000)  returns 0x00 (0000ms, 0745ms total)
T0598 000:998 JLINK_WriteReg(R4, 0x00000000)  returns 0x00 (0000ms, 0745ms total)
T0598 000:998 JLINK_WriteReg(R5, 0x00000000)  returns 0x00 (0000ms, 0745ms total)
T0598 000:998 JLINK_WriteReg(R6, 0x00000000)  returns 0x00 (0000ms, 0745ms total)
T0598 000:998 JLINK_WriteReg(R7, 0x00000000)  returns 0x00 (0000ms, 0745ms total)
T0598 000:998 JLINK_WriteReg(R8, 0x00000000)  returns 0x00 (0000ms, 0745ms total)
T0598 000:998 JLINK_WriteReg(R9, 0x20000160)  returns 0x00 (0000ms, 0745ms total)
T0598 000:998 JLINK_WriteReg(R10, 0x00000000)  returns 0x00 (0000ms, 0745ms total)
T0598 000:998 JLINK_WriteReg(R11, 0x00000000)  returns 0x00 (0000ms, 0745ms total)
T0598 000:998 JLINK_WriteReg(R12, 0x00000000)  returns 0x00 (0000ms, 0745ms total)
T0598 000:998 JLINK_WriteReg(R13 (SP), 0x20000800)  returns 0x00 (0000ms, 0745ms total)
T0598 000:998 JLINK_WriteReg(R14, 0x20000001)  returns 0x00 (0001ms, 0746ms total)
T0598 000:999 JLINK_WriteReg(R15 (PC), 0x200000B6)  returns 0x00 (0000ms, 0746ms total)
T0598 000:999 JLINK_WriteReg(XPSR, 0x01000000)  returns 0x00 (0000ms, 0746ms total)
T0598 000:999 JLINK_WriteReg(MSP, 0x20000800)  returns 0x00 (0000ms, 0746ms total)
T0598 000:999 JLINK_WriteReg(PSP, 0x20000800)  returns 0x00 (0000ms, 0746ms total)
T0598 000:999 JLINK_WriteReg(CFBP, 0x00000000)  returns 0x00 (0000ms, 0746ms total)
T0598 000:999 JLINK_SetBPEx(Addr = 0x20000000, Type = 0xFFFFFFF2)  returns 0x00000007 (0000ms, 0746ms total)
T0598 000:999 JLINK_Go() -- CPU_ReadMem(4 bytes @ 0xE0001000) (0002ms, 0748ms total)
T0598 001:001 JLINK_IsHalted()  returns FALSE (0001ms, 0749ms total)
T0598 001:011 JLINK_IsHalted()  returns FALSE (0000ms, 0748ms total)
T0598 001:018 JLINK_IsHalted()  returns FALSE (0000ms, 0748ms total)
T0598 001:019 JLINK_IsHalted()  returns FALSE (0000ms, 0748ms total)
T0598 001:020 JLINK_IsHalted()  returns FALSE (0000ms, 0748ms total)
T0598 001:027 JLINK_IsHalted() -- CPU_ReadMem(2 bytes @ 0x20000000)  returns TRUE (0003ms, 0751ms total)
T0598 001:030 JLINK_ReadReg(R15 (PC))  returns 0x20000000 (0000ms, 0748ms total)
T0598 001:030 JLINK_ClrBPEx(BPHandle = 0x00000007)  returns 0x00 (0000ms, 0748ms total)
T0598 001:030 JLINK_ReadReg(R0)  returns 0x00000000 (0000ms, 0748ms total)
T0598 001:031 JLINK_WriteReg(R0, 0x00000001)  returns 0x00 (0000ms, 0748ms total)
T0598 001:031 JLINK_WriteReg(R1, 0x00000800)  returns 0x00 (0000ms, 0748ms total)
T0598 001:031 JLINK_WriteReg(R2, 0x000000FF)  returns 0x00 (0000ms, 0748ms total)
T0598 001:031 JLINK_WriteReg(R3, 0x00000000)  returns 0x00 (0000ms, 0748ms total)
T0598 001:031 JLINK_WriteReg(R4, 0x00000000)  returns 0x00 (0000ms, 0748ms total)
T0598 001:031 JLINK_WriteReg(R5, 0x00000000)  returns 0x00 (0000ms, 0748ms total)
T0598 001:031 JLINK_WriteReg(R6, 0x00000000)  returns 0x00 (0000ms, 0748ms total)
T0598 001:031 JLINK_WriteReg(R7, 0x00000000)  returns 0x00 (0000ms, 0748ms total)
T0598 001:031 JLINK_WriteReg(R8, 0x00000000)  returns 0x00 (0000ms, 0748ms total)
T0598 001:031 JLINK_WriteReg(R9, 0x20000160)  returns 0x00 (0000ms, 0748ms total)
T0598 001:031 JLINK_WriteReg(R10, 0x00000000)  returns 0x00 (0001ms, 0749ms total)
T0598 001:032 JLINK_WriteReg(R11, 0x00000000)  returns 0x00 (0000ms, 0749ms total)
T0598 001:032 JLINK_WriteReg(R12, 0x00000000)  returns 0x00 (0000ms, 0749ms total)
T0598 001:032 JLINK_WriteReg(R13 (SP), 0x20000800)  returns 0x00 (0000ms, 0749ms total)
T0598 001:032 JLINK_WriteReg(R14, 0x20000001)  returns 0x00 (0000ms, 0749ms total)
T0598 001:032 JLINK_WriteReg(R15 (PC), 0x2000006A)  returns 0x00 (0000ms, 0749ms total)
T0598 001:032 JLINK_WriteReg(XPSR, 0x01000000)  returns 0x00 (0000ms, 0749ms total)
T0598 001:032 JLINK_WriteReg(MSP, 0x20000800)  returns 0x00 (0000ms, 0749ms total)
T0598 001:032 JLINK_WriteReg(PSP, 0x20000800)  returns 0x00 (0000ms, 0749ms total)
T0598 001:032 JLINK_WriteReg(CFBP, 0x00000000)  returns 0x00 (0000ms, 0749ms total)
T0598 001:032 JLINK_SetBPEx(Addr = 0x20000000, Type = 0xFFFFFFF2)  returns 0x00000008 (0000ms, 0749ms total)
T0598 001:032 JLINK_Go() -- CPU_ReadMem(4 bytes @ 0xE0001000) (0002ms, 0751ms total)
T0598 001:034 JLINK_IsHalted() -- CPU_ReadMem(2 bytes @ 0x20000000)  returns TRUE (0004ms, 0755ms total)
T0598 001:038 JLINK_ReadReg(R15 (PC))  returns 0x20000000 (0000ms, 0751ms total)
T0598 001:038 JLINK_ClrBPEx(BPHandle = 0x00000008)  returns 0x00 (0000ms, 0751ms total)
T0598 001:038 JLINK_ReadReg(R0)  returns 0x00000000 (0000ms, 0751ms total)
T0598 001:096 JLINK_WriteMem(0x20000000, 0x0164 Bytes, ...) - Data: 00 BE 0A E0 0D 78 2D 06 68 40 08 24 40 00 00 D3 ... -- CPU_WriteMem(356 bytes @ 0x20000000)  returns 0x164 (0002ms, 0753ms total)
T0598 001:098 JLINK_WriteReg(R0, 0x08000000)  returns 0x00 (0001ms, 0754ms total)
T0598 001:099 JLINK_WriteReg(R1, 0x017D7840)  returns 0x00 (0000ms, 0754ms total)
T0598 001:099 JLINK_WriteReg(R2, 0x00000002)  returns 0x00 (0000ms, 0754ms total)
T0598 001:099 JLINK_WriteReg(R3, 0x00000000)  returns 0x00 (0000ms, 0754ms total)
T0598 001:099 JLINK_WriteReg(R4, 0x00000000)  returns 0x00 (0000ms, 0754ms total)
T0598 001:099 JLINK_WriteReg(R5, 0x00000000)  returns 0x00 (0000ms, 0754ms total)
T0598 001:099 JLINK_WriteReg(R6, 0x00000000)  returns 0x00 (0000ms, 0754ms total)
T0598 001:099 JLINK_WriteReg(R7, 0x00000000)  returns 0x00 (0000ms, 0754ms total)
T0598 001:099 JLINK_WriteReg(R8, 0x00000000)  returns 0x00 (0000ms, 0754ms total)
T0598 001:099 JLINK_WriteReg(R9, 0x20000160)  returns 0x00 (0000ms, 0754ms total)
T0598 001:099 JLINK_WriteReg(R10, 0x00000000)  returns 0x00 (0000ms, 0754ms total)
T0598 001:100 JLINK_WriteReg(R11, 0x00000000)  returns 0x00 (0000ms, 0755ms total)
T0598 001:100 JLINK_WriteReg(R12, 0x00000000)  returns 0x00 (0000ms, 0755ms total)
T0598 001:100 JLINK_WriteReg(R13 (SP), 0x20000800)  returns 0x00 (0000ms, 0755ms total)
T0598 001:100 JLINK_WriteReg(R14, 0x20000001)  returns 0x00 (0000ms, 0755ms total)
T0598 001:100 JLINK_WriteReg(R15 (PC), 0x20000038)  returns 0x00 (0000ms, 0755ms total)
T0598 001:100 JLINK_WriteReg(XPSR, 0x01000000)  returns 0x00 (0000ms, 0755ms total)
T0598 001:100 JLINK_WriteReg(MSP, 0x20000800)  returns 0x00 (0000ms, 0755ms total)
T0598 001:100 JLINK_WriteReg(PSP, 0x20000800)  returns 0x00 (0000ms, 0755ms total)
T0598 001:100 JLINK_WriteReg(CFBP, 0x00000000)  returns 0x00 (0000ms, 0755ms total)
T0598 001:100 JLINK_SetBPEx(Addr = 0x20000000, Type = 0xFFFFFFF2) -- CPU_ReadMem(2 bytes @ 0x20000000)  returns 0x00000009 (0001ms, 0756ms total)
T0598 001:101 JLINK_Go() -- CPU_WriteMem(2 bytes @ 0x20000000) -- CPU_ReadMem(4 bytes @ 0xE0001000) (0003ms, 0759ms total)
T0598 001:104 JLINK_IsHalted() -- CPU_ReadMem(2 bytes @ 0x20000000)  returns TRUE (0003ms, 0762ms total)
T0598 001:107 JLINK_ReadReg(R15 (PC))  returns 0x20000000 (0000ms, 0759ms total)
T0598 001:107 JLINK_ClrBPEx(BPHandle = 0x00000009)  returns 0x00 (0001ms, 0760ms total)
T0598 001:108 JLINK_ReadReg(R0)  returns 0x00000000 (0000ms, 0760ms total)
T0598 001:108 JLINK_WriteMem(0x20000164, 0x0400 Bytes, ...) - Data: 60 07 00 20 F9 08 00 08 A1 02 00 08 A3 02 00 08 ... -- CPU_WriteMem(1024 bytes @ 0x20000164)  returns 0x400 (0004ms, 0764ms total)
T0598 001:112 JLINK_WriteReg(R0, 0x08000000)  returns 0x00 (0000ms, 0764ms total)
T0598 001:112 JLINK_WriteReg(R1, 0x00000400)  returns 0x00 (0001ms, 0765ms total)
T0598 001:113 JLINK_WriteReg(R2, 0x20000164)  returns 0x00 (0000ms, 0765ms total)
T0598 001:113 JLINK_WriteReg(R3, 0x00000000)  returns 0x00 (0000ms, 0765ms total)
T0598 001:113 JLINK_WriteReg(R4, 0x00000000)  returns 0x00 (0000ms, 0765ms total)
T0598 001:113 JLINK_WriteReg(R5, 0x00000000)  returns 0x00 (0000ms, 0765ms total)
T0598 001:113 JLINK_WriteReg(R6, 0x00000000)  returns 0x00 (0000ms, 0765ms total)
T0598 001:113 JLINK_WriteReg(R7, 0x00000000)  returns 0x00 (0000ms, 0765ms total)
T0598 001:113 JLINK_WriteReg(R8, 0x00000000)  returns 0x00 (0000ms, 0765ms total)
T0598 001:113 JLINK_WriteReg(R9, 0x20000160)  returns 0x00 (0000ms, 0765ms total)
T0598 001:113 JLINK_WriteReg(R10, 0x00000000)  returns 0x00 (0000ms, 0765ms total)
T0598 001:113 JLINK_WriteReg(R11, 0x00000000)  returns 0x00 (0000ms, 0765ms total)
T0598 001:113 JLINK_WriteReg(R12, 0x00000000)  returns 0x00 (0000ms, 0765ms total)
T0598 001:113 JLINK_WriteReg(R13 (SP), 0x20000800)  returns 0x00 (0000ms, 0765ms total)
T0598 001:113 JLINK_WriteReg(R14, 0x20000001)  returns 0x00 (0000ms, 0765ms total)
T0598 001:114 JLINK_WriteReg(R15 (PC), 0x200000F4)  returns 0x00 (0000ms, 0765ms total)
T0598 001:114 JLINK_WriteReg(XPSR, 0x01000000)  returns 0x00 (0000ms, 0765ms total)
T0598 001:114 JLINK_WriteReg(MSP, 0x20000800)  returns 0x00 (0000ms, 0765ms total)
T0598 001:114 JLINK_WriteReg(PSP, 0x20000800)  returns 0x00 (0000ms, 0765ms total)
T0598 001:114 JLINK_WriteReg(CFBP, 0x00000000)  returns 0x00 (0000ms, 0765ms total)
T0598 001:114 JLINK_SetBPEx(Addr = 0x20000000, Type = 0xFFFFFFF2)  returns 0x0000000A (0000ms, 0765ms total)
T0598 001:114 JLINK_Go() -- CPU_ReadMem(4 bytes @ 0xE0001000) (0002ms, 0767ms total)
T0598 001:116 JLINK_IsHalted()  returns FALSE (0001ms, 0768ms total)
T0598 001:143 JLINK_IsHalted()  returns FALSE (0000ms, 0767ms total)
T0598 001:152 JLINK_IsHalted() -- CPU_ReadMem(2 bytes @ 0x20000000)  returns TRUE (0003ms, 0770ms total)
T0598 001:155 JLINK_ReadReg(R15 (PC))  returns 0x20000000 (0000ms, 0767ms total)
T0598 001:155 JLINK_ClrBPEx(BPHandle = 0x0000000A)  returns 0x00 (0000ms, 0767ms total)
T0598 001:155 JLINK_ReadReg(R0)  returns 0x00000000 (0000ms, 0767ms total)
T0598 001:156 JLINK_WriteMem(0x20000164, 0x0400 Bytes, ...) - Data: 28 D1 07 E0 21 4B 22 4C 23 60 27 E0 1F 4B 20 4C ... -- CPU_WriteMem(1024 bytes @ 0x20000164)  returns 0x400 (0004ms, 0771ms total)
T0598 001:160 JLINK_WriteReg(R0, 0x08000400)  returns 0x00 (0000ms, 0771ms total)
T0598 001:160 JLINK_WriteReg(R1, 0x00000400)  returns 0x00 (0001ms, 0772ms total)
T0598 001:161 JLINK_WriteReg(R2, 0x20000164)  returns 0x00 (0000ms, 0772ms total)
T0598 001:161 JLINK_WriteReg(R3, 0x00000000)  returns 0x00 (0000ms, 0772ms total)
T0598 001:161 JLINK_WriteReg(R4, 0x00000000)  returns 0x00 (0000ms, 0772ms total)
T0598 001:161 JLINK_WriteReg(R5, 0x00000000)  returns 0x00 (0000ms, 0772ms total)
T0598 001:161 JLINK_WriteReg(R6, 0x00000000)  returns 0x00 (0000ms, 0772ms total)
T0598 001:161 JLINK_WriteReg(R7, 0x00000000)  returns 0x00 (0000ms, 0772ms total)
T0598 001:161 JLINK_WriteReg(R8, 0x00000000)  returns 0x00 (0000ms, 0772ms total)
T0598 001:161 JLINK_WriteReg(R9, 0x20000160)  returns 0x00 (0000ms, 0772ms total)
T0598 001:161 JLINK_WriteReg(R10, 0x00000000)  returns 0x00 (0000ms, 0772ms total)
T0598 001:161 JLINK_WriteReg(R11, 0x00000000)  returns 0x00 (0000ms, 0772ms total)
T0598 001:161 JLINK_WriteReg(R12, 0x00000000)  returns 0x00 (0000ms, 0772ms total)
T0598 001:161 JLINK_WriteReg(R13 (SP), 0x20000800)  returns 0x00 (0000ms, 0772ms total)
T0598 001:162 JLINK_WriteReg(R14, 0x20000001)  returns 0x00 (0000ms, 0773ms total)
T0598 001:162 JLINK_WriteReg(R15 (PC), 0x200000F4)  returns 0x00 (0000ms, 0773ms total)
T0598 001:162 JLINK_WriteReg(XPSR, 0x01000000)  returns 0x00 (0000ms, 0773ms total)
T0598 001:162 JLINK_WriteReg(MSP, 0x20000800)  returns 0x00 (0000ms, 0773ms total)
T0598 001:162 JLINK_WriteReg(PSP, 0x20000800)  returns 0x00 (0000ms, 0773ms total)
T0598 001:162 JLINK_WriteReg(CFBP, 0x00000000)  returns 0x00 (0000ms, 0773ms total)
T0598 001:162 JLINK_SetBPEx(Addr = 0x20000000, Type = 0xFFFFFFF2)  returns 0x0000000B (0000ms, 0773ms total)
T0598 001:162 JLINK_Go() -- CPU_ReadMem(4 bytes @ 0xE0001000) (0002ms, 0775ms total)
T0598 001:164 JLINK_IsHalted()  returns FALSE (0001ms, 0776ms total)
T0598 001:172 JLINK_IsHalted()  returns FALSE (0000ms, 0775ms total)
T0598 001:173 JLINK_IsHalted()  returns FALSE (0000ms, 0775ms total)
T0598 001:174 JLINK_IsHalted()  returns FALSE (0000ms, 0775ms total)
T0598 001:175 JLINK_IsHalted()  returns FALSE (0000ms, 0775ms total)
T0598 001:176 JLINK_IsHalted()  returns FALSE (0000ms, 0775ms total)
T0598 001:177 JLINK_IsHalted()  returns FALSE (0000ms, 0775ms total)
T0598 001:178 JLINK_IsHalted()  returns FALSE (0000ms, 0775ms total)
T0598 001:179 JLINK_IsHalted()  returns FALSE (0000ms, 0775ms total)
T0598 001:180 JLINK_IsHalted()  returns FALSE (0000ms, 0775ms total)
T0598 001:181 JLINK_IsHalted()  returns FALSE (0000ms, 0775ms total)
T0598 001:182 JLINK_IsHalted()  returns FALSE (0000ms, 0775ms total)
T0598 001:183 JLINK_IsHalted()  returns FALSE (0000ms, 0775ms total)
T0598 001:190 JLINK_IsHalted()  returns FALSE (0000ms, 0775ms total)
T0598 001:200 JLINK_IsHalted() -- CPU_ReadMem(2 bytes @ 0x20000000)  returns TRUE (0003ms, 0778ms total)
T0598 001:203 JLINK_ReadReg(R15 (PC))  returns 0x20000000 (0000ms, 0775ms total)
T0598 001:203 JLINK_ClrBPEx(BPHandle = 0x0000000B)  returns 0x00 (0000ms, 0775ms total)
T0598 001:203 JLINK_ReadReg(R0)  returns 0x00000000 (0000ms, 0775ms total)
T0598 001:204 JLINK_WriteMem(0x20000164, 0x0400 Bytes, ...) - Data: 4F F4 80 60 AD F8 14 00 04 20 8D F8 17 00 05 A9 ... -- CPU_WriteMem(1024 bytes @ 0x20000164)  returns 0x400 (0004ms, 0779ms total)
T0598 001:208 JLINK_WriteReg(R0, 0x08000800)  returns 0x00 (0000ms, 0779ms total)
T0598 001:208 JLINK_WriteReg(R1, 0x00000400)  returns 0x00 (0000ms, 0779ms total)
T0598 001:208 JLINK_WriteReg(R2, 0x20000164)  returns 0x00 (0000ms, 0779ms total)
T0598 001:209 JLINK_WriteReg(R3, 0x00000000)  returns 0x00 (0000ms, 0780ms total)
T0598 001:209 JLINK_WriteReg(R4, 0x00000000)  returns 0x00 (0000ms, 0780ms total)
T0598 001:209 JLINK_WriteReg(R5, 0x00000000)  returns 0x00 (0000ms, 0780ms total)
T0598 001:209 JLINK_WriteReg(R6, 0x00000000)  returns 0x00 (0000ms, 0780ms total)
T0598 001:209 JLINK_WriteReg(R7, 0x00000000)  returns 0x00 (0000ms, 0780ms total)
T0598 001:209 JLINK_WriteReg(R8, 0x00000000)  returns 0x00 (0000ms, 0780ms total)
T0598 001:209 JLINK_WriteReg(R9, 0x20000160)  returns 0x00 (0000ms, 0780ms total)
T0598 001:209 JLINK_WriteReg(R10, 0x00000000)  returns 0x00 (0000ms, 0780ms total)
T0598 001:209 JLINK_WriteReg(R11, 0x00000000)  returns 0x00 (0000ms, 0780ms total)
T0598 001:209 JLINK_WriteReg(R12, 0x00000000)  returns 0x00 (0000ms, 0780ms total)
T0598 001:209 JLINK_WriteReg(R13 (SP), 0x20000800)  returns 0x00 (0000ms, 0780ms total)
T0598 001:209 JLINK_WriteReg(R14, 0x20000001)  returns 0x00 (0000ms, 0780ms total)
T0598 001:210 JLINK_WriteReg(R15 (PC), 0x200000F4)  returns 0x00 (0000ms, 0781ms total)
T0598 001:210 JLINK_WriteReg(XPSR, 0x01000000)  returns 0x00 (0000ms, 0781ms total)
T0598 001:210 JLINK_WriteReg(MSP, 0x20000800)  returns 0x00 (0000ms, 0781ms total)
T0598 001:210 JLINK_WriteReg(PSP, 0x20000800)  returns 0x00 (0000ms, 0781ms total)
T0598 001:210 JLINK_WriteReg(CFBP, 0x00000000)  returns 0x00 (0000ms, 0781ms total)
T0598 001:210 JLINK_SetBPEx(Addr = 0x20000000, Type = 0xFFFFFFF2)  returns 0x0000000C (0000ms, 0781ms total)
T0598 001:210 JLINK_Go() -- CPU_ReadMem(4 bytes @ 0xE0001000) (0002ms, 0783ms total)
T0598 001:212 JLINK_IsHalted()  returns FALSE (0001ms, 0784ms total)
T0598 001:220 JLINK_IsHalted()  returns FALSE (0000ms, 0783ms total)
T0598 001:221 JLINK_IsHalted()  returns FALSE (0000ms, 0783ms total)
T0598 001:222 JLINK_IsHalted()  returns FALSE (0000ms, 0783ms total)
T0598 001:223 JLINK_IsHalted()  returns FALSE (0000ms, 0783ms total)
T0598 001:224 JLINK_IsHalted()  returns FALSE (0000ms, 0783ms total)
T0598 001:225 JLINK_IsHalted()  returns FALSE (0000ms, 0783ms total)
T0598 001:226 JLINK_IsHalted()  returns FALSE (0000ms, 0783ms total)
T0598 001:227 JLINK_IsHalted()  returns FALSE (0000ms, 0783ms total)
T0598 001:228 JLINK_IsHalted()  returns FALSE (0000ms, 0783ms total)
T0598 001:235 JLINK_IsHalted()  returns FALSE (0000ms, 0783ms total)
T0598 001:236 JLINK_IsHalted()  returns FALSE (0000ms, 0783ms total)
T0598 001:237 JLINK_IsHalted()  returns FALSE (0000ms, 0783ms total)
T0598 001:238 JLINK_IsHalted()  returns FALSE (0000ms, 0783ms total)
T0598 001:248 JLINK_IsHalted() -- CPU_ReadMem(2 bytes @ 0x20000000)  returns TRUE (0003ms, 0786ms total)
T0598 001:251 JLINK_ReadReg(R15 (PC))  returns 0x20000000 (0000ms, 0783ms total)
T0598 001:251 JLINK_ClrBPEx(BPHandle = 0x0000000C)  returns 0x00 (0000ms, 0783ms total)
T0598 001:251 JLINK_ReadReg(R0)  returns 0x00000000 (0000ms, 0783ms total)
T0598 001:252 JLINK_WriteMem(0x20000164, 0x0400 Bytes, ...) - Data: 0B 40 0B B1 01 20 00 E0 00 20 70 47 01 46 88 68 ... -- CPU_WriteMem(1024 bytes @ 0x20000164)  returns 0x400 (0004ms, 0787ms total)
T0598 001:256 JLINK_WriteReg(R0, 0x08000C00)  returns 0x00 (0000ms, 0787ms total)
T0598 001:256 JLINK_WriteReg(R1, 0x00000400)  returns 0x00 (0000ms, 0787ms total)
T0598 001:256 JLINK_WriteReg(R2, 0x20000164)  returns 0x00 (0000ms, 0787ms total)
T0598 001:257 JLINK_WriteReg(R3, 0x00000000)  returns 0x00 (0000ms, 0788ms total)
T0598 001:257 JLINK_WriteReg(R4, 0x00000000)  returns 0x00 (0000ms, 0788ms total)
T0598 001:257 JLINK_WriteReg(R5, 0x00000000)  returns 0x00 (0000ms, 0788ms total)
T0598 001:257 JLINK_WriteReg(R6, 0x00000000)  returns 0x00 (0000ms, 0788ms total)
T0598 001:257 JLINK_WriteReg(R7, 0x00000000)  returns 0x00 (0000ms, 0788ms total)
T0598 001:257 JLINK_WriteReg(R8, 0x00000000)  returns 0x00 (0000ms, 0788ms total)
T0598 001:257 JLINK_WriteReg(R9, 0x20000160)  returns 0x00 (0000ms, 0788ms total)
T0598 001:257 JLINK_WriteReg(R10, 0x00000000)  returns 0x00 (0000ms, 0788ms total)
T0598 001:257 JLINK_WriteReg(R11, 0x00000000)  returns 0x00 (0000ms, 0788ms total)
T0598 001:257 JLINK_WriteReg(R12, 0x00000000)  returns 0x00 (0000ms, 0788ms total)
T0598 001:257 JLINK_WriteReg(R13 (SP), 0x20000800)  returns 0x00 (0000ms, 0788ms total)
T0598 001:257 JLINK_WriteReg(R14, 0x20000001)  returns 0x00 (0000ms, 0788ms total)
T0598 001:258 JLINK_WriteReg(R15 (PC), 0x200000F4)  returns 0x00 (0000ms, 0789ms total)
T0598 001:258 JLINK_WriteReg(XPSR, 0x01000000)  returns 0x00 (0000ms, 0789ms total)
T0598 001:258 JLINK_WriteReg(MSP, 0x20000800)  returns 0x00 (0000ms, 0789ms total)
T0598 001:258 JLINK_WriteReg(PSP, 0x20000800)  returns 0x00 (0000ms, 0789ms total)
T0598 001:258 JLINK_WriteReg(CFBP, 0x00000000)  returns 0x00 (0000ms, 0789ms total)
T0598 001:258 JLINK_SetBPEx(Addr = 0x20000000, Type = 0xFFFFFFF2)  returns 0x0000000D (0000ms, 0789ms total)
T0598 001:258 JLINK_Go() -- CPU_ReadMem(4 bytes @ 0xE0001000) (0002ms, 0791ms total)
T0598 001:260 JLINK_IsHalted()  returns FALSE (0001ms, 0792ms total)
T0598 001:268 JLINK_IsHalted()  returns FALSE (0000ms, 0791ms total)
T0598 001:269 JLINK_IsHalted()  returns FALSE (0000ms, 0791ms total)
T0598 001:270 JLINK_IsHalted()  returns FALSE (0000ms, 0791ms total)
T0598 001:278 JLINK_IsHalted()  returns FALSE (0000ms, 0791ms total)
T0598 001:279 JLINK_IsHalted()  returns FALSE (0000ms, 0791ms total)
T0598 001:280 JLINK_IsHalted()  returns FALSE (0000ms, 0791ms total)
T0598 001:281 JLINK_IsHalted()  returns FALSE (0000ms, 0791ms total)
T0598 001:282 JLINK_IsHalted()  returns FALSE (0000ms, 0791ms total)
T0598 001:283 JLINK_IsHalted()  returns FALSE (0000ms, 0791ms total)
T0598 001:284 JLINK_IsHalted()  returns FALSE (0000ms, 0791ms total)
T0598 001:285 JLINK_IsHalted()  returns FALSE (0000ms, 0791ms total)
T0598 001:286 JLINK_IsHalted()  returns FALSE (0000ms, 0791ms total)
T0598 001:287 JLINK_IsHalted()  returns FALSE (0000ms, 0791ms total)
T0598 001:288 JLINK_IsHalted()  returns FALSE (0000ms, 0791ms total)
T0598 001:289 JLINK_IsHalted()  returns FALSE (0000ms, 0791ms total)
T0598 001:290 JLINK_IsHalted()  returns FALSE (0000ms, 0791ms total)
T0598 001:297 JLINK_IsHalted() -- CPU_ReadMem(2 bytes @ 0x20000000)  returns TRUE (0003ms, 0794ms total)
T0598 001:300 JLINK_ReadReg(R15 (PC))  returns 0x20000000 (0000ms, 0791ms total)
T0598 001:300 JLINK_ClrBPEx(BPHandle = 0x0000000D)  returns 0x00 (0000ms, 0791ms total)
T0598 001:300 JLINK_ReadReg(R0)  returns 0x00000000 (0000ms, 0791ms total)
T0598 001:301 JLINK_WriteMem(0x20000164, 0x0400 Bytes, ...) - Data: 45 68 DD 40 85 60 3A 4D 6D 68 05 F4 60 51 C9 0A ... -- CPU_WriteMem(1024 bytes @ 0x20000164)  returns 0x400 (0006ms, 0797ms total)
T0598 001:307 JLINK_WriteReg(R0, 0x08001000)  returns 0x00 (0000ms, 0797ms total)
T0598 001:307 JLINK_WriteReg(R1, 0x00000400)  returns 0x00 (0000ms, 0797ms total)
T0598 001:307 JLINK_WriteReg(R2, 0x20000164)  returns 0x00 (0000ms, 0797ms total)
T0598 001:307 JLINK_WriteReg(R3, 0x00000000)  returns 0x00 (0000ms, 0797ms total)
T0598 001:307 JLINK_WriteReg(R4, 0x00000000)  returns 0x00 (0000ms, 0797ms total)
T0598 001:307 JLINK_WriteReg(R5, 0x00000000)  returns 0x00 (0001ms, 0798ms total)
T0598 001:308 JLINK_WriteReg(R6, 0x00000000)  returns 0x00 (0000ms, 0798ms total)
T0598 001:308 JLINK_WriteReg(R7, 0x00000000)  returns 0x00 (0000ms, 0798ms total)
T0598 001:308 JLINK_WriteReg(R8, 0x00000000)  returns 0x00 (0000ms, 0798ms total)
T0598 001:308 JLINK_WriteReg(R9, 0x20000160)  returns 0x00 (0000ms, 0798ms total)
T0598 001:308 JLINK_WriteReg(R10, 0x00000000)  returns 0x00 (0000ms, 0798ms total)
T0598 001:308 JLINK_WriteReg(R11, 0x00000000)  returns 0x00 (0000ms, 0798ms total)
T0598 001:308 JLINK_WriteReg(R12, 0x00000000)  returns 0x00 (0000ms, 0798ms total)
T0598 001:308 JLINK_WriteReg(R13 (SP), 0x20000800)  returns 0x00 (0000ms, 0798ms total)
T0598 001:308 JLINK_WriteReg(R14, 0x20000001)  returns 0x00 (0000ms, 0798ms total)
T0598 001:308 JLINK_WriteReg(R15 (PC), 0x200000F4)  returns 0x00 (0000ms, 0798ms total)
T0598 001:308 JLINK_WriteReg(XPSR, 0x01000000)  returns 0x00 (0000ms, 0798ms total)
T0598 001:308 JLINK_WriteReg(MSP, 0x20000800)  returns 0x00 (0001ms, 0799ms total)
T0598 001:309 JLINK_WriteReg(PSP, 0x20000800)  returns 0x00 (0000ms, 0799ms total)
T0598 001:309 JLINK_WriteReg(CFBP, 0x00000000)  returns 0x00 (0000ms, 0799ms total)
T0598 001:309 JLINK_SetBPEx(Addr = 0x20000000, Type = 0xFFFFFFF2)  returns 0x0000000E (0000ms, 0799ms total)
T0598 001:309 JLINK_Go() -- CPU_ReadMem(4 bytes @ 0xE0001000) (0002ms, 0801ms total)
T0598 001:311 JLINK_IsHalted()  returns FALSE (0001ms, 0802ms total)
T0598 001:327 JLINK_IsHalted()  returns FALSE (0000ms, 0801ms total)
T0598 001:328 JLINK_IsHalted()  returns FALSE (0000ms, 0801ms total)
T0598 001:329 JLINK_IsHalted()  returns FALSE (0000ms, 0801ms total)
T0598 001:330 JLINK_IsHalted()  returns FALSE (0003ms, 0804ms total)
T0598 001:340 JLINK_IsHalted()  returns FALSE (0000ms, 0801ms total)
T0598 001:341 JLINK_IsHalted()  returns FALSE (0000ms, 0801ms total)
T0598 001:342 JLINK_IsHalted() -- CPU_ReadMem(2 bytes @ 0x20000000)  returns TRUE (0002ms, 0803ms total)
T0598 001:344 JLINK_ReadReg(R15 (PC))  returns 0x20000000 (0001ms, 0802ms total)
T0598 001:345 JLINK_ClrBPEx(BPHandle = 0x0000000E)  returns 0x00 (0000ms, 0802ms total)
T0598 001:345 JLINK_ReadReg(R0)  returns 0x00000000 (0000ms, 0802ms total)
T0598 001:346 JLINK_WriteMem(0x20000164, 0x0400 Bytes, ...) - Data: 82 82 04 E0 82 8A 4F F6 F7 73 1A 40 82 82 70 47 ... -- CPU_WriteMem(1024 bytes @ 0x20000164)  returns 0x400 (0004ms, 0806ms total)
T0598 001:350 JLINK_WriteReg(R0, 0x08001400)  returns 0x00 (0000ms, 0806ms total)
T0598 001:350 JLINK_WriteReg(R1, 0x000001E0)  returns 0x00 (0000ms, 0806ms total)
T0598 001:350 JLINK_WriteReg(R2, 0x20000164)  returns 0x00 (0000ms, 0806ms total)
T0598 001:350 JLINK_WriteReg(R3, 0x00000000)  returns 0x00 (0001ms, 0807ms total)
T0598 001:351 JLINK_WriteReg(R4, 0x00000000)  returns 0x00 (0000ms, 0807ms total)
T0598 001:351 JLINK_WriteReg(R5, 0x00000000)  returns 0x00 (0000ms, 0807ms total)
T0598 001:351 JLINK_WriteReg(R6, 0x00000000)  returns 0x00 (0000ms, 0807ms total)
T0598 001:351 JLINK_WriteReg(R7, 0x00000000)  returns 0x00 (0000ms, 0807ms total)
T0598 001:351 JLINK_WriteReg(R8, 0x00000000)  returns 0x00 (0000ms, 0807ms total)
T0598 001:351 JLINK_WriteReg(R9, 0x20000160)  returns 0x00 (0000ms, 0807ms total)
T0598 001:351 JLINK_WriteReg(R10, 0x00000000)  returns 0x00 (0000ms, 0807ms total)
T0598 001:351 JLINK_WriteReg(R11, 0x00000000)  returns 0x00 (0000ms, 0807ms total)
T0598 001:351 JLINK_WriteReg(R12, 0x00000000)  returns 0x00 (0000ms, 0807ms total)
T0598 001:351 JLINK_WriteReg(R13 (SP), 0x20000800)  returns 0x00 (0000ms, 0807ms total)
T0598 001:351 JLINK_WriteReg(R14, 0x20000001)  returns 0x00 (0000ms, 0807ms total)
T0598 001:351 JLINK_WriteReg(R15 (PC), 0x200000F4)  returns 0x00 (0001ms, 0808ms total)
T0598 001:352 JLINK_WriteReg(XPSR, 0x01000000)  returns 0x00 (0000ms, 0808ms total)
T0598 001:352 JLINK_WriteReg(MSP, 0x20000800)  returns 0x00 (0000ms, 0808ms total)
T0598 001:352 JLINK_WriteReg(PSP, 0x20000800)  returns 0x00 (0000ms, 0808ms total)
T0598 001:352 JLINK_WriteReg(CFBP, 0x00000000)  returns 0x00 (0000ms, 0808ms total)
T0598 001:352 JLINK_SetBPEx(Addr = 0x20000000, Type = 0xFFFFFFF2)  returns 0x0000000F (0000ms, 0808ms total)
T0598 001:352 JLINK_Go() -- CPU_ReadMem(4 bytes @ 0xE0001000) (0002ms, 0810ms total)
T0598 001:354 JLINK_IsHalted()  returns FALSE (0001ms, 0811ms total)
T0598 001:365 JLINK_IsHalted()  returns FALSE (0000ms, 0810ms total)
T0598 001:367 JLINK_IsHalted()  returns FALSE (0001ms, 0811ms total)
T0598 001:377 JLINK_IsHalted() -- CPU_ReadMem(2 bytes @ 0x20000000)  returns TRUE (0003ms, 0813ms total)
T0598 001:380 JLINK_ReadReg(R15 (PC))  returns 0x20000000 (0000ms, 0810ms total)
T0598 001:380 JLINK_ClrBPEx(BPHandle = 0x0000000F)  returns 0x00 (0000ms, 0810ms total)
T0598 001:380 JLINK_ReadReg(R0)  returns 0x00000000 (0000ms, 0810ms total)
T0598 001:380 JLINK_WriteReg(R0, 0x00000002)  returns 0x00 (0000ms, 0810ms total)
T0598 001:380 JLINK_WriteReg(R1, 0x000001E0)  returns 0x00 (0000ms, 0810ms total)
T0598 001:380 JLINK_WriteReg(R2, 0x20000164)  returns 0x00 (0000ms, 0810ms total)
T0598 001:380 JLINK_WriteReg(R3, 0x00000000)  returns 0x00 (0000ms, 0810ms total)
T0598 001:380 JLINK_WriteReg(R4, 0x00000000)  returns 0x00 (0000ms, 0810ms total)
T0598 001:380 JLINK_WriteReg(R5, 0x00000000)  returns 0x00 (0000ms, 0810ms total)
T0598 001:380 JLINK_WriteReg(R6, 0x00000000)  returns 0x00 (0001ms, 0811ms total)
T0598 001:381 JLINK_WriteReg(R7, 0x00000000)  returns 0x00 (0000ms, 0811ms total)
T0598 001:381 JLINK_WriteReg(R8, 0x00000000)  returns 0x00 (0000ms, 0811ms total)
T0598 001:381 JLINK_WriteReg(R9, 0x20000160)  returns 0x00 (0000ms, 0811ms total)
T0598 001:381 JLINK_WriteReg(R10, 0x00000000)  returns 0x00 (0000ms, 0811ms total)
T0598 001:381 JLINK_WriteReg(R11, 0x00000000)  returns 0x00 (0000ms, 0811ms total)
T0598 001:381 JLINK_WriteReg(R12, 0x00000000)  returns 0x00 (0000ms, 0811ms total)
T0598 001:381 JLINK_WriteReg(R13 (SP), 0x20000800)  returns 0x00 (0000ms, 0811ms total)
T0598 001:381 JLINK_WriteReg(R14, 0x20000001)  returns 0x00 (0000ms, 0811ms total)
T0598 001:381 JLINK_WriteReg(R15 (PC), 0x2000006A)  returns 0x00 (0000ms, 0811ms total)
T0598 001:381 JLINK_WriteReg(XPSR, 0x01000000)  returns 0x00 (0000ms, 0811ms total)
T0598 001:381 JLINK_WriteReg(MSP, 0x20000800)  returns 0x00 (0000ms, 0811ms total)
T0598 001:381 JLINK_WriteReg(PSP, 0x20000800)  returns 0x00 (0001ms, 0812ms total)
T0598 001:382 JLINK_WriteReg(CFBP, 0x00000000)  returns 0x00 (0000ms, 0812ms total)
T0598 001:382 JLINK_SetBPEx(Addr = 0x20000000, Type = 0xFFFFFFF2)  returns 0x00000010 (0000ms, 0812ms total)
T0598 001:382 JLINK_Go() -- CPU_ReadMem(4 bytes @ 0xE0001000) (0004ms, 0816ms total)
T0598 001:386 JLINK_IsHalted() -- CPU_ReadMem(2 bytes @ 0x20000000)  returns TRUE (0004ms, 0820ms total)
T0598 001:390 JLINK_ReadReg(R15 (PC))  returns 0x20000000 (0000ms, 0816ms total)
